T2420 12339:319.647   SEGGER J-Link V6.94d Log File
T2420 12339:319.929   DLL Compiled: Feb 12 2021 15:52:57
T2420 12339:320.032   Logging started @ 2021-02-20 19:03
T2420 12339:320.129 - 20142.289ms
T2CC0 12339:410.400 JLINK_EMU_GetList(InterfaceMask = 0x00000001, MaxInfos = 0x00000032) 
T2CC0 12339:412.796   [0]: USB, S/N: 801014814
T2CC0 12339:413.106 - 2.752ms returns 1
T2CC0 12339:413.349 JLINK_EMU_GetList(InterfaceMask = 0x00000002, MaxInfos = 0x00000032) 
T2CC0 12339:466.977 - 53.766ms returns 0
T2420 12339:496.665 JLINK_ExecCommand("Device = ATSAMD21G18A", ...). 
T2420 12339:497.395   Device "ATSAMD21G18" selected.
T2420 12339:501.067 - 4.320ms returns 0x00
T2420 12339:670.625 JLINK_TIF_Select(JLINKARM_TIF_SWD)
T2420 12339:671.893 - 1.314ms returns 0x00
T2420 12339:671.965 JLINK_SetSpeed(4000)
T2420 12339:672.239 - 0.296ms
T2420 12339:672.283 JLINK_ResetPullsRESET(OFF)
T2420 12339:672.309 - 0.040ms
T2420 12339:672.339 JLINK_Connect()
T2420 12339:672.836   InitTarget() start
T2420 12339:673.066    J-Link Script File: Executing InitTarget()
T2420 12339:673.179   InitTarget()
T2420 12339:676.145   InitTarget() end
T2420 12339:677.347   Found SW-DP with ID 0x0BC11477
T2420 12339:681.065   DPIDR: 0x0BC11477
T2420 12339:681.244   Scanning AP map to find all available APs
T2420 12339:682.212   AP[1]: Stopped AP scan as end of AP map has been reached
T2420 12339:682.285   AP[0]: AHB-AP (IDR: 0x04770031)
T2420 12339:682.342   Iterating through AP map to find AHB-AP to use
T2420 12339:684.247   AP[0]: Core found
T2420 12339:684.666   AP[0]: AHB-AP ROM base: 0x41003000
T2420 12339:685.701   CPUID register: 0x410CC601. Implementer code: 0x41 (ARM)
T2420 12339:685.822   Found Cortex-M0 r0p1, Little endian.
T2420 12339:787.170   -- Max. mem block: 0x000013C8
T2420 12339:787.380   CPU_ReadMem(4 bytes @ 0xE000EDF0)
T2420 12339:787.775   CPU_WriteMem(4 bytes @ 0xE000EDF0)
T2420 12339:788.135   CPU_ReadMem(4 bytes @ 0xE0002000)
T2420 12339:788.538   FPUnit: 4 code (BP) slots and 0 literal slots
T2420 12339:788.583   CPU_ReadMem(4 bytes @ 0xE000EDFC)
T2420 12339:789.048   CPU_WriteMem(4 bytes @ 0xE000EDFC)
T2420 12339:789.469   CPU_ReadMem(4 bytes @ 0xE0001000)
T2420 12339:789.855   CPU_WriteMem(4 bytes @ 0xE0001000)
T2420 12339:790.325   CoreSight components:
T2420 12339:790.380   ROMTbl[0] @ 41003000
T2420 12339:790.420   CPU_ReadMem(64 bytes @ 0x41003000)
T2420 12339:791.189   CPU_ReadMem(32 bytes @ 0xE00FFFE0)
T2420 12339:791.748   ROMTbl[0][0]: E00FF000, CID: B105100D, PID: 000BB4C0 ROM Table
T2420 12339:791.828   ROMTbl[1] @ E00FF000
T2420 12339:791.909   CPU_ReadMem(64 bytes @ 0xE00FF000)
T2420 12339:792.821   CPU_ReadMem(32 bytes @ 0xE000EFE0)
T2420 12339:793.499   ROMTbl[1][0]: E000E000, CID: B105E00D, PID: 000BB008 SCS
T2420 12339:793.618   CPU_ReadMem(32 bytes @ 0xE0001FE0)
T2420 12339:794.224   ROMTbl[1][1]: E0001000, CID: B105E00D, PID: 000BB00A DWT
T2420 12339:794.295   CPU_ReadMem(32 bytes @ 0xE0002FE0)
T2420 12339:794.878   ROMTbl[1][2]: E0002000, CID: B105E00D, PID: 000BB00B FPB
T2420 12339:794.944   CPU_ReadMem(32 bytes @ 0x41006FE0)
T2420 12339:795.538   ROMTbl[0][1]: 41006000, CID: B105900D, PID: 001BB932 MTB-M0+
T2420 12339:795.623 - 123.297ms returns 0x00
T2420 12339:795.740 JLINK_Halt()
T2420 12339:798.721 - 3.025ms returns 0x00
T2420 12339:801.519 JLINK_JTAG_GetDeviceID(DeviceIndex = 0)
T2420 12339:801.577 - 0.071ms returns 0
T2420 12339:801.608 JLINK_ReadMemU32(0x41002018, 0x1 Items)
T2420 12339:801.662   CPU_ReadMem(4 bytes @ 0x41002018)
T2420 12339:802.097   Data:  05 03 01 10
T2420 12339:802.160 - 0.564ms returns 1 (0x1)
T2D20 12339:813.738 JLINK_IsHalted()
T2D20 12339:814.390 - 0.717ms returns TRUE
T2D20 12339:814.484 JLINK_GetMOEs(...)
T2D20 12339:814.532   CPU_ReadMem(4 bytes @ 0xE000ED30)
T2D20 12339:815.037 - 0.581ms returns 0x01
T2D20 12339:815.089 JLINK_ReadReg(R15 (PC))
T2D20 12339:815.128 - 0.051ms returns 0x00005EAA
T2D20 12340:019.843 JLINK_IsHalted()
T2D20 12340:019.912 - 0.081ms returns TRUE
T2420 12340:025.799 JLINK_BeginDownload(Flags = 0x00000000)
T2420 12340:026.014 - 0.241ms
T2420 12340:026.100 JLINK_WriteMem(0x00000000, 0x1EC10 Bytes, ...)
T2420 12340:026.129   Data:  00 80 00 20 A1 5D 00 00 89 5D 00 00 89 5D 00 00 ...
T2420 12340:026.910   completely In flash
T2420 12340:027.277    -- Read from flash cache (125968 bytes @ 0x00000000)
T2420 12340:027.347 - 1.259ms returns 0x1EC10
T2420 12340:027.804 JLINK_WriteMem(0x0001EC10, 0x5C Bytes, ...)
T2420 12340:027.870   Data:  72 B6 10 4B 04 33 10 4A 93 42 12 D9 0F 4A 12 7D ...
T2420 12340:027.920   completely In flash
T2420 12340:027.964    -- Read from flash cache (92 bytes @ 0x0001EC10)
T2420 12340:028.002 - 0.211ms returns 0x5C
T2420 12340:028.337 JLINK_WriteMem(0x0001EC6C, 0x310 Bytes, ...)
T2420 12340:028.398   Data:  00 00 00 00 01 00 00 00 62 72 61 76 65 63 68 65 ...
T2420 12340:028.442   completely In flash
T2420 12340:028.484    -- Read from flash cache (784 bytes @ 0x0001EC6C)
T2420 12340:028.524 - 0.200ms returns 0x310
T2420 12340:162.912 JLINK_EndDownload()
T2420 12340:163.263   CPU_ReadMem(4 bytes @ 0x41006004)
T2420 12340:163.624   CPU_ReadMem(4 bytes @ 0xE000ED90)
T2420 12340:164.019    -- --------------------------------------
T2420 12340:164.056   Flash bank @ 0x00000000: Default: L2 verify disabled because algorithm performs L1 verify
T2420 12340:164.090    -- Start of determining dirty areas in flash cache
T2420 12340:164.280    -- End of determining dirty areas
T2420 12340:164.315    -- Start of preparing flash programming
T2420 12340:164.350    -- Calculating RAM usage
T2420 12340:164.406    -- RAM usage = 5860 Bytes
T2420 12340:164.440    -- Preserving CPU registers
T2420 12340:164.499    -- Preparing memory
T2420 12340:164.534    -- Preparing target
T2420 12340:164.567    -- Downloading RAMCode
T2420 12340:181.491    -- Preparing RAMCode
T2420 12340:186.933    -- Checking target RAM
T2420 12340:188.315    -- End of preparing flash programming
T2420 12340:188.685   Looking for J-Link GUI Server exe at: C:\Program Files (x86)\Atmel\Studio\7.0\atbackend\JLinkGUIServer.exe
T2420 12340:188.923   Looking for J-Link GUI Server exe at: C:\Program Files (x86)\SEGGER\JLink\JLinkGUIServer.exe
T2420 12340:189.088   Forking J-Link GUI Server: C:\Program Files (x86)\SEGGER\JLink\JLinkGUIServer.exe
T2420 12340:246.328   J-Link GUI Server info: "J-Link GUI server V6.94d "
T2420 12340:267.528    -- CPU speed could not be measured.
T2420 12340:267.612    -- Start of comparing flash
T2420 12340:267.651    -- CRC check was estimated as fastest method
T2420 12340:339.325    -- Comparing range 0x0000 - 0xFFFF (256 Sectors, 64 KB), using multi-block CRC calculation
T2420 12340:378.760    -- CRC does not match for sectors 0-255
T2420 12340:379.735    -- Comparing range 0x10000 - 0x1EFFF (240 Sectors, 60 KB), using multi-block CRC calculation
T2420 12340:410.154    -- CRC does not match for sectors 0-239
T2420 12340:410.232    -- End of comparing flash
T2420 12340:410.267    -- Start of erasing sectors
T2420 12340:410.303    -- Erasing range 0x00000000 - 0x00007FFF (128 Sectors, 32 KB)
T2420 12340:526.821    -- Erasing range 0x00008000 - 0x0000FFFF (128 Sectors, 32 KB)
T2420 12340:640.581    -- Erasing range 0x00010000 - 0x00017FFF (128 Sectors, 32 KB)
T2420 12340:754.095    -- Erasing range 0x00018000 - 0x0001EFFF (112 Sectors, 28 KB)
T2420 12340:854.827    -- End of erasing sectors
T2420 12340:854.910    -- Start of flash programming
T2420 12340:854.949    -- Programming range 0x00000000 - 0x00007FFF (128 Sectors, 32 KB)
T2420 12341:090.250    -- Programming range 0x00008000 - 0x0000FFFF (128 Sectors, 32 KB)
T2420 12341:345.062    -- Programming range 0x00010000 - 0x00017FFF (128 Sectors, 32 KB)
T2420 12341:601.443    -- Programming range 0x00018000 - 0x0001EFFF (112 Sectors, 28 KB)
T2420 12341:821.010    -- End of flash programming
T2420 12341:821.101    -- 0x0000 - 0x1EFFF (496 Sectors, 124 KB)
T2420 12341:821.146    -- Start of restoring
T2420 12341:821.188    -- Restoring RAMCode
T2420 12341:848.805    -- Restore target
T2420 12341:848.893    -- Restore memory
T2420 12341:849.105    -- Restoring CPU registers
T2420 12341:849.165    -- End of restoring
T2420 12341:849.365    -- Bank 0 @ 0x00000000: 1 range affected (126976 bytes)
T2420 12341:849.445    -- Total: 1.684s (Prepare: 0.103s, Compare: 0.142s, Erase: 0.444s, Program & Verify: 0.987s, Restore: 0.006s)
T2420 12341:849.505    -- Program & Verify speed: 125 KB/s
T2420 12341:855.323 - 1692.453ms returns 126976 (0x1F000)
T2420 12341:855.819 JLINK_SetResetType(JLINKARM_CM3_RESET_TYPE_NORMAL)
T2420 12341:855.926 - 0.121ms returns JLINKARM_CM3_RESET_TYPE_NORMAL
T2420 12341:855.958 JLINK_Reset()
T2420 12341:856.006   CPU_ReadMem(4 bytes @ 0x20000674)
T2420 12341:856.742   CPU_WriteMem(4 bytes @ 0x20000674)
T2420 12341:857.874   ResetTarget() start
T2420 12341:857.955    J-Link Script File: Executing ResetTarget()
T2420 12341:860.073   CPU_ReadMem(4 bytes @ 0xE000EDFC)
T2420 12341:862.161   CPU_WriteMem(4 bytes @ 0xE000EDFC)
T2420 12341:862.890   CPU_WriteMem(4 bytes @ 0xE000ED0C)
T2420 12341:864.733   CPU_ReadMem(4 bytes @ 0xE000EDF0)
T2420 12341:865.555   CPU_ReadMem(4 bytes @ 0x41002100)
T2420 12341:866.182   CPU_WriteMem(4 bytes @ 0xE000EDFC)
T2420 12341:866.919   ResetTarget() end
T2420 12341:870.911   CPU_WriteMem(4 bytes @ 0xE0002000)
T2420 12341:871.428   CPU_ReadMem(4 bytes @ 0xE000EDFC)
T2420 12341:872.191   CPU_ReadMem(4 bytes @ 0xE0001000)
T2420 12341:872.940   CPU_WriteMem(4 bytes @ 0xE0001000)
T2420 12341:876.121 - 20.270ms
T2CC0 12341:883.987 JLINK_EMU_GetList(InterfaceMask = 0x00000001, MaxInfos = 0x00000032) 
T2CC0 12341:888.322   [0]: USB, S/N: 801014814
T2CC0 12341:888.380 - 4.406ms returns 1
T2CC0 12341:888.515 JLINK_EMU_GetList(InterfaceMask = 0x00000002, MaxInfos = 0x00000032) 
T2CC0 12341:946.796 - 58.338ms returns 0
T2D20 12342:051.914 JLINK_IsHalted()
T2D20 12342:052.003 - 0.103ms returns TRUE
T1D20 12342:140.877 JLINK_Halt()
T1D20 12342:140.922 - 0.060ms returns 0x00
T1D20 12342:140.981 JLINK_ReadReg(R15 (PC))
T1D20 12342:141.020 - 0.053ms returns 0x00005DA0
T1D20 12342:141.056 JLINK_ReadReg(R13 (SP))
T1D20 12342:141.084 - 0.041ms returns 0x20008000
T1D20 12342:148.594 JLINK_ReadMemHW(0x00005DA0, 0x0004 Bytes, ...)
T1D20 12342:148.657   CPU_ReadMem(4 bytes @ 0x00005DA0)
T1D20 12342:149.373   Data:  10 B5 12 4A
T1D20 12342:149.448 - 0.869ms returns 0
T1D20 12342:150.199 JLINK_ReadReg(R0)
T1D20 12342:150.302 - 0.120ms returns 0x00000000
T1D20 12342:150.375 JLINK_ReadReg(R1)
T1D20 12342:150.404 - 0.042ms returns 0x00000000
T1D20 12342:150.439 JLINK_ReadReg(R2)
T1D20 12342:150.466 - 0.041ms returns 0x00000000
T1D20 12342:150.501 JLINK_ReadReg(R3)
T1D20 12342:150.529 - 0.042ms returns 0x0001E800
T1D20 12342:150.563 JLINK_ReadReg(R4)
T1D20 12342:150.591 - 0.041ms returns 0x20000654
T1D20 12342:150.625 JLINK_ReadReg(R5)
T1D20 12342:150.652 - 0.044ms returns 0x200006AC
T1D20 12342:150.689 JLINK_ReadReg(R6)
T1D20 12342:150.717 - 0.041ms returns 0x200006AC
T1D20 12342:150.750 JLINK_ReadReg(R7)
T1D20 12342:150.778 - 0.040ms returns 0xA5A5A5A5
T1D20 12342:150.811 JLINK_ReadReg(R8)
T1D20 12342:150.839 - 0.040ms returns 0xA5A5A5A5
T1D20 12342:150.872 JLINK_ReadReg(R9)
T1D20 12342:150.899 - 0.040ms returns 0xA5A5A5A5
T1D20 12342:150.932 JLINK_ReadReg(R10)
T1D20 12342:150.959 - 0.040ms returns 0xA5A5A5A5
T1D20 12342:150.992 JLINK_ReadReg(R11)
T1D20 12342:151.019 - 0.040ms returns 0xA5A5A5A5
T1D20 12342:151.052 JLINK_ReadReg(R12)
T1D20 12342:151.080 - 0.041ms returns 0x200005D8
T1D20 12342:151.117 JLINK_ReadReg(R13 (SP))
T1D20 12342:151.146 - 0.041ms returns 0x20008000
T1D20 12342:151.179 JLINK_ReadReg(R14)
T1D20 12342:151.208 - 0.041ms returns 0x2000032F
T1D20 12342:151.241 JLINK_ReadReg(R15 (PC))
T1D20 12342:151.269 - 0.040ms returns 0x00005DA0
T1D20 12342:151.320 JLINK_ReadReg(XPSR)
T1D20 12342:151.348 - 0.041ms returns 0x61000000
T1D20 12342:151.381 JLINK_ReadReg(MSP)
T1D20 12342:151.408 - 0.040ms returns 0x20008000
T1D20 12342:151.442 JLINK_ReadReg(PSP)
T1D20 12342:151.469 - 0.041ms returns 0x20002FE8
T1D20 12342:151.519 JLINK_ReadReg(PRIMASK)
T1D20 12342:151.556 - 0.050ms returns 0x00000000
T1D20 12342:151.589 JLINK_ReadReg(BASEPRI)
T1D20 12342:151.617 - 0.041ms returns 0x00000000
T1D20 12342:151.650 JLINK_ReadReg(FAULTMASK)
T1D20 12342:151.680 - 0.043ms returns 0x00000000
T1D20 12342:151.714 JLINK_ReadReg(CONTROL)
T1D20 12342:151.742 - 0.041ms returns 0x00000000
T1D20 12342:152.283 JLINK_ReadMemHW(0x00005DA0, 0x0002 Bytes, ...)
T1D20 12342:152.346   CPU_ReadMem(2 bytes @ 0x00005DA0)
T1D20 12342:152.848   Data:  10 B5
T1D20 12342:152.941 - 0.671ms returns 0
T2D20 12342:252.733 JLINK_IsHalted()
T2D20 12342:252.837 - 0.120ms returns TRUE
T1D20 12342:269.789 JLINK_ReadReg(R0)
T1D20 12342:269.936 - 0.164ms returns 0x00000000
T1D20 12342:269.986 JLINK_ReadReg(R1)
T1D20 12342:270.019 - 0.048ms returns 0x00000000
T1D20 12342:270.059 JLINK_ReadReg(R2)
T1D20 12342:270.091 - 0.049ms returns 0x00000000
T1D20 12342:270.133 JLINK_ReadReg(R3)
T1D20 12342:270.165 - 0.047ms returns 0x0001E800
T1D20 12342:270.201 JLINK_ReadReg(R4)
T1D20 12342:270.231 - 0.044ms returns 0x20000654
T1D20 12342:270.267 JLINK_ReadReg(R5)
T1D20 12342:270.296 - 0.043ms returns 0x200006AC
T1D20 12342:270.332 JLINK_ReadReg(R6)
T1D20 12342:270.363 - 0.046ms returns 0x200006AC
T1D20 12342:270.402 JLINK_ReadReg(R7)
T1D20 12342:270.435 - 0.049ms returns 0xA5A5A5A5
T1D20 12342:270.475 JLINK_ReadReg(R8)
T1D20 12342:270.506 - 0.045ms returns 0xA5A5A5A5
T1D20 12342:270.542 JLINK_ReadReg(R9)
T1D20 12342:270.572 - 0.043ms returns 0xA5A5A5A5
T1D20 12342:270.608 JLINK_ReadReg(R10)
T1D20 12342:270.637 - 0.044ms returns 0xA5A5A5A5
T1D20 12342:270.678 JLINK_ReadReg(R11)
T1D20 12342:270.715 - 0.052ms returns 0xA5A5A5A5
T1D20 12342:270.755 JLINK_ReadReg(R12)
T1D20 12342:270.787 - 0.047ms returns 0x200005D8
T1D20 12342:270.824 JLINK_ReadReg(R13 (SP))
T1D20 12342:270.855 - 0.044ms returns 0x20008000
T1D20 12342:270.889 JLINK_ReadReg(R14)
T1D20 12342:270.918 - 0.042ms returns 0x2000032F
T1D20 12342:270.953 JLINK_ReadReg(R15 (PC))
T1D20 12342:270.985 - 0.049ms returns 0x00005DA0
T1D20 12342:271.050 JLINK_ReadReg(XPSR)
T1D20 12342:271.084 - 0.048ms returns 0x61000000
T1D20 12342:271.119 JLINK_ReadReg(MSP)
T1D20 12342:271.149 - 0.043ms returns 0x20008000
T1D20 12342:271.185 JLINK_ReadReg(PSP)
T1D20 12342:271.214 - 0.044ms returns 0x20002FE8
T1D20 12342:271.252 JLINK_ReadReg(PRIMASK)
T1D20 12342:271.286 - 0.049ms returns 0x00000000
T1D20 12342:271.325 JLINK_ReadReg(BASEPRI)
T1D20 12342:271.359 - 0.048ms returns 0x00000000
T1D20 12342:271.395 JLINK_ReadReg(FAULTMASK)
T1D20 12342:271.424 - 0.043ms returns 0x00000000
T1D20 12342:271.460 JLINK_ReadReg(CONTROL)
T1D20 12342:271.489 - 0.044ms returns 0x00000000
T2D20 12342:456.189 JLINK_IsHalted()
T2D20 12342:456.974 - 0.808ms returns TRUE
T1D20 12342:457.027 JLINK_ReadMemHW(0x00005DA0, 0x0004 Bytes, ...)
T1D20 12342:457.068   CPU_ReadMem(4 bytes @ 0x00005DA0)
T1D20 12342:457.539   Data:  10 B5 12 4A
T1D20 12342:457.608 - 0.594ms returns 0
T1D20 12342:519.306 JLINK_SetResetType(JLINKARM_CM3_RESET_TYPE_NORMAL)
T1D20 12342:519.348 - 0.057ms returns JLINKARM_CM3_RESET_TYPE_NORMAL
T1D20 12342:519.381 JLINK_Reset()
T1D20 12342:519.480   ResetTarget() start
T1D20 12342:519.523    J-Link Script File: Executing ResetTarget()
T1D20 12342:519.566   CPU_ReadMem(4 bytes @ 0xE000EDFC)
T1D20 12342:520.206   CPU_WriteMem(4 bytes @ 0xE000EDFC)
T1D20 12342:520.793   CPU_WriteMem(4 bytes @ 0xE000ED0C)
T1D20 12342:523.328   CPU_ReadMem(4 bytes @ 0xE000EDF0)
T1D20 12342:523.835   CPU_ReadMem(4 bytes @ 0x41002100)
T1D20 12342:524.430   CPU_WriteMem(4 bytes @ 0xE000EDFC)
T1D20 12342:525.618   ResetTarget() end
T1D20 12342:529.372   CPU_WriteMem(4 bytes @ 0xE0002000)
T1D20 12342:529.944   CPU_ReadMem(4 bytes @ 0xE000EDFC)
T1D20 12342:530.444   CPU_ReadMem(4 bytes @ 0xE0001000)
T1D20 12342:530.950   CPU_WriteMem(4 bytes @ 0xE0001000)
T1D20 12342:531.448 - 12.097ms
T2D20 12342:531.532 JLINK_IsHalted()
T2D20 12342:531.594 - 0.076ms returns TRUE
T2D20 12342:531.628 JLINK_GetMOEs(...)
T2D20 12342:531.801   CPU_ReadMem(4 bytes @ 0xE000ED30)
T2D20 12342:532.272 - 0.670ms returns 0x01
T2D20 12342:532.323 JLINK_ReadReg(R15 (PC))
T2D20 12342:532.364 - 0.054ms returns 0x00005DA0
T1D20 12342:541.674 JLINK_ReadReg(R15 (PC))
T1D20 12342:541.811 - 0.165ms returns 0x00005DA0
T1D20 12342:541.883 JLINK_ReadReg(R13 (SP))
T1D20 12342:541.934 - 0.076ms returns 0x20008000
T1D20 12342:560.077 JLINK_ReadMemHW(0x00005DA0, 0x0004 Bytes, ...)
T1D20 12342:560.151   CPU_ReadMem(4 bytes @ 0x00005DA0)
T1D20 12342:560.623   Data:  10 B5 12 4A
T1D20 12342:560.671 - 0.608ms returns 0
T1D20 12342:595.640 JLINK_ReadMemHW(0x00000000, 0x0004 Bytes, ...)
T1D20 12342:595.716   CPU_ReadMem(4 bytes @ 0x00000000)
T1D20 12342:596.144   Data:  00 80 00 20
T1D20 12342:596.205 - 0.579ms returns 0
T1D20 12342:613.086 JLINK_ReadMemHW(0x00000000, 0x0004 Bytes, ...)
T1D20 12342:613.155   CPU_ReadMem(4 bytes @ 0x00000000)
T1D20 12342:613.580   Data:  00 80 00 20
T1D20 12342:613.634 - 0.562ms returns 0
T1D20 12342:615.064 JLINK_ReadMemHW(0x00000000, 0x0004 Bytes, ...)
T1D20 12342:615.136   CPU_ReadMem(4 bytes @ 0x00000000)
T1D20 12342:615.606   Data:  00 80 00 20
T1D20 12342:615.678 - 0.628ms returns 0
T1D20 12342:622.769 JLINK_ReadMemHW(0x00000000, 0x0004 Bytes, ...)
T1D20 12342:622.864   CPU_ReadMem(4 bytes @ 0x00000000)
T1D20 12342:623.346   Data:  00 80 00 20
T1D20 12342:623.405 - 0.650ms returns 0
T1D20 12342:690.452 JLINK_ReadMemHW(0x00005FBC, 0x0001 Bytes, ...)
T1D20 12342:690.560   CPU_ReadMem(1 bytes @ 0x00005FBC)
T1D20 12342:691.802   Data:  10
T1D20 12342:691.874 - 1.436ms returns 0
T2D20 12342:733.509 JLINK_IsHalted()
T2D20 12342:733.571 - 0.076ms returns TRUE
T1D20 12342:738.406 JLINK_ReadReg(R15 (PC))
T1D20 12342:738.465 - 0.073ms returns 0x00005DA0
T1D20 12342:738.684 JLINK_GetNumBPUnits(Type = 0xFFFFFF02)
T1D20 12342:738.725 - 0.054ms returns 0x04
T1D20 12342:738.815 JLINK_SetBPEx(Addr = 0x00005FBC, Type = 0xFFFFFFF2)
T1D20 12342:738.856 - 0.055ms returns 0x00000001
T1D20 12342:738.886 JLINK_GetBPInfo(BPHandle = 1)
T1D20 12342:738.912 - 0.039ms returns 0x0
T1D20 12342:739.462 JLINK_Go()
T1D20 12342:739.571   CPU_WriteMem(4 bytes @ 0xE0002000)
T1D20 12342:743.698   CPU_ReadMem(4 bytes @ 0xE0001000)
T1D20 12342:745.530   CPU_WriteMem(4 bytes @ 0xE000ED30)
T1D20 12342:746.059   CPU_WriteMem(4 bytes @ 0xE0001000)
T1D20 12342:746.115   CPU_WriteMem(4 bytes @ 0xE0002008)
T1D20 12342:746.155   CPU_WriteMem(4 bytes @ 0xE000200C)
T1D20 12342:746.192   CPU_WriteMem(4 bytes @ 0xE0002010)
T1D20 12342:746.230   CPU_WriteMem(4 bytes @ 0xE0002014)
T1D20 12342:747.871   CPU_WriteMem(4 bytes @ 0xE0001004)
T1D20 12342:748.870 - 9.452ms
T2D20 12342:749.065 JLINK_IsHalted()
T2D20 12342:749.800   CPU_ReadMem(4 bytes @ 0x41002100)
T2D20 12342:750.408 - 1.385ms returns FALSE
T2D20 12342:773.543 JLINK_IsHalted()
T2D20 12342:774.028   CPU_ReadMem(4 bytes @ 0x41002100)
T2D20 12342:774.443 - 0.954ms returns FALSE
T2D20 12342:855.529 JLINK_IsHalted()
T2D20 12342:858.687 - 3.209ms returns TRUE
T2D20 12342:858.763 JLINK_GetMOEs(...)
T2D20 12342:858.796   CPU_ReadMem(4 bytes @ 0xE000ED30)
T2D20 12342:859.403 - 0.691ms returns 0x01
T2D20 12342:859.482 JLINK_ReadReg(R15 (PC))
T2D20 12342:859.571 - 0.103ms returns 0x00005FBC
T1D20 12342:861.811 JLINK_ReadReg(R15 (PC))
T1D20 12342:861.890 - 0.113ms returns 0x00005FBC
T1D20 12342:861.955 JLINK_ReadReg(R13 (SP))
T1D20 12342:861.981 - 0.040ms returns 0x20007FF8
T1D20 12342:862.601 JLINK_ReadMemHW(0x00005FBC, 0x0004 Bytes, ...)
T1D20 12342:862.666   CPU_ReadMem(4 bytes @ 0x00005FBC)
T1D20 12342:863.237   Data:  10 B5 02 F0
T1D20 12342:863.312 - 0.723ms returns 0
T1D20 12342:894.660 JLINK_WriteU32_64(0xE000EDFC, 0x01000000)
T1D20 12342:894.728   Debug reg: DEMCR
T1D20 12342:895.540   CPU_WriteMem(4 bytes @ 0xE000EDFC)
T1D20 12342:896.191 - 1.573ms returns 0 (0x00000000)
T1D20 12342:896.261 JLINK_ReadMem(0xE0001000, 0x4 Bytes, ...)
T1D20 12342:896.308   CPU_ReadMem(4 bytes @ 0xE0001000)
T1D20 12342:896.801   Data:  00 00 00 20
T1D20 12342:896.870   Debug reg: DWT_CTRL
T1D20 12342:896.929 - 0.681ms returns 0
T1D20 12342:897.077 JLINK_WriteU32_64(0xE0001000, 0x20000001)
T1D20 12342:897.112   Debug reg: DWT_CTRL
T1D20 12342:897.176 - 0.114ms returns 0 (0x00000000)
T1D20 12342:897.238 JLINK_WriteU32_64(0xE0001028, 0x00000100)
T1D20 12342:897.269   Debug reg: DWT_FUNC[0]
T1D20 12342:897.313 - 0.088ms returns 0 (0x00000000)
T1D20 12342:897.344 JLINK_ReadMem(0xE0001028, 0x4 Bytes, ...)
T1D20 12342:897.379   CPU_WriteMem(4 bytes @ 0xE0001028)
T1D20 12342:897.911   CPU_ReadMem(4 bytes @ 0xE0001028)
T1D20 12342:898.364   Data:  00 00 00 00
T1D20 12342:898.418   Debug reg: DWT_FUNC[0]
T1D20 12342:898.452 - 1.119ms returns 0
T1D20 12342:898.600 JLINK_WriteU32_64(0xE0001024, 0x0000001F)
T1D20 12342:898.631   Debug reg: DWT_MASK[0]
T1D20 12342:898.692 - 0.105ms returns 0 (0x00000000)
T1D20 12342:898.723 JLINK_ReadMem(0xE0001024, 0x4 Bytes, ...)
T1D20 12342:898.756   CPU_WriteMem(4 bytes @ 0xE0001024)
T1D20 12342:899.447   CPU_ReadMem(4 bytes @ 0xE0001024)
T1D20 12342:900.068   Data:  1F 00 00 00
T1D20 12342:900.144   Debug reg: DWT_MASK[0]
T1D20 12342:900.177 - 1.466ms returns 0
T1D20 12342:900.327 JLINK_WriteU32_64(0xE0001038, 0x00000100)
T1D20 12342:900.352   Debug reg: DWT_FUNC[1]
T1D20 12342:900.405 - 0.090ms returns 0 (0x00000000)
T1D20 12342:900.433 JLINK_ReadMem(0xE0001038, 0x4 Bytes, ...)
T1D20 12342:900.463   CPU_WriteMem(4 bytes @ 0xE0001038)
T1D20 12342:901.146   CPU_ReadMem(4 bytes @ 0xE0001038)
T1D20 12342:901.605   Data:  00 00 00 00
T1D20 12342:901.671   Debug reg: DWT_FUNC[1]
T1D20 12342:901.708 - 1.288ms returns 0
T1D20 12342:901.856 JLINK_WriteU32_64(0xE0001034, 0x0000001F)
T1D20 12342:901.888   Debug reg: DWT_MASK[1]
T1D20 12342:901.972 - 0.132ms returns 0 (0x00000000)
T1D20 12342:902.006 JLINK_ReadMem(0xE0001034, 0x4 Bytes, ...)
T1D20 12342:902.039   CPU_WriteMem(4 bytes @ 0xE0001034)
T1D20 12342:902.475   CPU_ReadMem(4 bytes @ 0xE0001034)
T1D20 12342:902.914   Data:  1F 00 00 00
T1D20 12342:902.983   Debug reg: DWT_MASK[1]
T1D20 12342:903.018 - 1.023ms returns 0
T1D20 12342:903.160 JLINK_WriteU32_64(0xE0001020, 0x00000000)
T1D20 12342:903.191   Debug reg: DWT_COMP[0]
T1D20 12342:903.279 - 0.133ms returns 0 (0x00000000)
T1D20 12342:903.335 JLINK_WriteU32_64(0xE0001024, 0x00000000)
T1D20 12342:903.363   Debug reg: DWT_MASK[0]
T1D20 12342:903.403 - 0.080ms returns 0 (0x00000000)
T1D20 12342:903.454 JLINK_WriteU32_64(0xE0001028, 0x00000000)
T1D20 12342:903.482   Debug reg: DWT_FUNC[0]
T1D20 12342:903.538 - 0.097ms returns 0 (0x00000000)
T1D20 12342:903.589 JLINK_WriteU32_64(0xE0001030, 0x00000000)
T1D20 12342:903.617   Debug reg: DWT_COMP[1]
T1D20 12342:903.658 - 0.081ms returns 0 (0x00000000)
T1D20 12342:903.707 JLINK_WriteU32_64(0xE0001034, 0x00000000)
T1D20 12342:903.735   Debug reg: DWT_MASK[1]
T1D20 12342:903.773 - 0.079ms returns 0 (0x00000000)
T1D20 12342:903.823 JLINK_WriteU32_64(0xE0001038, 0x00000000)
T1D20 12342:903.869   Debug reg: DWT_FUNC[1]
T1D20 12342:903.912 - 0.103ms returns 0 (0x00000000)
T1D20 12342:903.948 JLINK_GetBPInfo(BPHandle = 1)
T1D20 12342:903.976 - 0.042ms returns 0x0
T1D20 12342:904.006 JLINK_ClrBPEx(BPHandle = 0x00000001)
T1D20 12342:904.034 - 0.042ms returns 0x00
T1D20 12342:904.116 JLINK_ReadReg(R15 (PC))
T1D20 12342:904.157 - 0.056ms returns 0x00005FBC
T1D20 12342:904.860 JLINK_Go()
T1D20 12342:904.928   CPU_WriteMem(4 bytes @ 0xE0001000)
T1D20 12342:905.614   CPU_ReadMem(4 bytes @ 0xE0001000)
T1D20 12342:906.153   CPU_WriteMem(4 bytes @ 0xE000ED30)
T1D20 12342:906.940   CPU_WriteMem(4 bytes @ 0xE0001000)
T1D20 12342:907.016   CPU_WriteMem(4 bytes @ 0xE0001020)
T1D20 12342:907.055   CPU_WriteMem(4 bytes @ 0xE0001030)
T1D20 12342:907.095   CPU_WriteMem(4 bytes @ 0xE0001024)
T1D20 12342:907.133   CPU_WriteMem(4 bytes @ 0xE0001034)
T1D20 12342:907.172   CPU_WriteMem(4 bytes @ 0xE0001028)
T1D20 12342:907.209   CPU_WriteMem(4 bytes @ 0xE0001038)
T1D20 12342:907.247   CPU_WriteMem(4 bytes @ 0xE0002008)
T1D20 12342:910.176 - 5.371ms
T2D20 12342:910.297 JLINK_IsHalted()
T2D20 12342:910.951   CPU_ReadMem(4 bytes @ 0x41002100)
T2D20 12342:911.574 - 1.330ms returns FALSE
T2D20 12342:953.547 JLINK_IsHalted()
T2D20 12342:954.038   CPU_ReadMem(4 bytes @ 0x41002100)
T2D20 12342:954.701 - 1.209ms returns FALSE
T2CC0 12343:014.790 JLINK_EMU_GetList(InterfaceMask = 0x00000001, MaxInfos = 0x00000032) 
T2CC0 12343:016.811   [0]: USB, S/N: 801014814
T2CC0 12343:016.868 - 2.091ms returns 1
T2CC0 12343:017.003 JLINK_EMU_GetList(InterfaceMask = 0x00000002, MaxInfos = 0x00000032) 
T2CC0 12343:072.735 - 55.796ms returns 0
T2D20 12343:117.577 JLINK_IsHalted()
T2D20 12343:118.228   CPU_ReadMem(4 bytes @ 0x41002100)
T2D20 12343:118.708 - 1.154ms returns FALSE
T2D20 12343:320.277 JLINK_IsHalted()
T2D20 12343:320.751   CPU_ReadMem(4 bytes @ 0x41002100)
T2D20 12343:321.248 - 0.989ms returns FALSE
T2D20 12343:523.836 JLINK_IsHalted()
